! AWR Design Environment (4847) Thu Apr 08 10:53:43 2010
! CGH40010F rev 6, Vdd=28 volts; Vgs=-2.25 volts; Idq=500mA
! Ports: 2, Freqs: 56
# GHz S MA R 50
!-----------------------------------------------------------------------------
!Freq         MagS11       AngS11       MagS21       AngS21       MagS12       AngS12       MagS22       AngS22
 0.5          0.9141      -135.02       18.575       103.7        0.020002     18.363       0.30029     -126.8       
 0.6          0.90942     -143.57       15.878       98.049       0.020467     13.667       0.30188     -133.51      
 0.7          0.90638     -150.23       13.828       93.329       0.020735     9.9047       0.30422     -138.4       
 0.8          0.90432     -155.61       12.228       89.229       0.020885     6.7703       0.30715     -142.08      
 0.9          0.90289     -160.09       10.949       85.563       0.020959     4.0782       0.31057     -144.94      
 1            0.90187     -163.93       9.9059       82.211       0.02098      1.7096       0.31441     -147.23      
 1.1          0.90114     -167.29       9.0402       79.092       0.020964    -0.41403      0.31862     -149.1       
 1.2          0.9006      -170.29       8.3111       76.152       0.020918    -2.3463       0.32314     -150.69      
 1.3          0.90022     -173          7.6891       73.352       0.02085     -4.1249       0.32793     -152.07      
 1.4          0.89994     -175.5        7.1525       70.663       0.020763    -5.7769       0.33297     -153.29      
 1.5          0.89974     -177.81       6.6852       68.065       0.02066     -7.322        0.33821     -154.41      
 1.6          0.89961     -179.98       6.2747       65.54        0.020545    -8.7748       0.34362     -155.44      
 1.7          0.89952      177.96       5.9114       63.077       0.020417    -10.146       0.34918     -156.43      
 1.8          0.89948      176          5.5878       60.666       0.020279    -11.445       0.35485     -157.38      
 1.9          0.89946      174.12       5.2977       58.299       0.020133    -12.676       0.36061     -158.3       
 2            0.89946      172.31       5.0364       55.969       0.019978    -13.845       0.36644     -159.22      
 2.1          0.89949      170.54       4.7997       53.672       0.019817    -14.955       0.3723      -160.14      
 2.2          0.89952      168.83       4.5846       51.403       0.019649    -16.009       0.37819     -161.06      
 2.3          0.89957      167.15       4.3882       49.158       0.019477    -17.008       0.38408     -161.99      
 2.4          0.89962      165.49       4.2083       46.935       0.019299    -17.954       0.38995     -162.93      
 2.5          0.89967      163.87       4.0429       44.73        0.019118    -18.847       0.39578     -163.88      
 2.6          0.89973      162.26       3.8905       42.541       0.018935    -19.687       0.40157     -164.86      
 2.7          0.89978      160.66       3.7496       40.367       0.018749    -20.475       0.40729     -165.85      
 2.8          0.89983      159.08       3.6191       38.205       0.018561    -21.21        0.41293     -166.86      
 2.9          0.89988      157.51       3.4978       36.053       0.018374    -21.892       0.41849     -167.89      
 3            0.89991      155.93       3.385        33.91        0.018187    -22.52        0.42394     -168.95      
 3.1          0.89995      154.36       3.2798       31.775       0.018001    -23.093       0.42929     -170.02      
 3.2          0.89997      152.79       3.1815       29.646       0.017817    -23.611       0.43451     -171.12      
 3.3          0.89998      151.22       3.0895       27.522       0.017637    -24.072       0.43962     -172.24      
 3.4          0.89998      149.64       3.0033       25.401       0.017461    -24.476       0.44459     -173.38      
 3.5          0.89997      148.05       2.9225       23.283       0.01729     -24.822       0.44942     -174.54      
 3.6          0.89995      146.45       2.8465       21.166       0.017126    -25.109       0.45411     -175.73      
 3.7          0.89991      144.85       2.7749       19.049       0.016969    -25.337       0.45865     -176.94      
 3.8          0.89987      143.23       2.7076       16.931       0.016821    -25.506       0.46303     -178.17      
 3.9          0.89981      141.59       2.6441       14.812       0.016684    -25.616       0.46727     -179.42      
 4            0.89973      139.94       2.5841       12.689       0.016558    -25.667       0.47134      179.3       
 4.1          0.89965      138.27       2.5274       10.562       0.016445    -25.661       0.47525      178         
 4.2          0.89955      136.58       2.4739       8.4295       0.016346    -25.6         0.479        176.67      
 4.3          0.89943      134.87       2.4231       6.291        0.016263    -25.484       0.48258      175.32      
 4.4          0.89931      133.14       2.3751       4.1453       0.016198    -25.319       0.486        173.94      
 4.5          0.89917      131.39       2.3295       1.9911       0.016152    -25.107       0.48926      172.54      
 4.6          0.89902      129.61       2.2863      -0.17243      0.016126    -24.853       0.49235      171.12      
 4.7          0.89887      127.8        2.2453      -2.3465       0.016122    -24.562       0.49527      169.66      
 4.8          0.8987       125.97       2.2063      -4.532        0.016142    -24.24        0.49803      168.18      
 4.9          0.89853      124.12       2.1691      -6.7302       0.016186    -23.896       0.50062      166.67      
 5            0.89835      122.23       2.1338      -8.942        0.016257    -23.536       0.50305      165.13      
 5.1          0.89816      120.31       2.1001      -11.168       0.016355    -23.168       0.50533      163.56      
 5.2          0.89797      118.36       2.068       -13.411       0.016483    -22.802       0.50744      161.96      
 5.3          0.89778      116.38       2.0374      -15.67        0.01664     -22.447       0.5094       160.33      
 5.4          0.8976       114.36       2.0081      -17.947       0.016827    -22.113       0.5112       158.66      
 5.5          0.89741      112.31       1.98        -20.243       0.017046    -21.808       0.51285      156.96      
 5.6          0.89723      110.22       1.9532      -22.559       0.017297    -21.542       0.51436      155.22      
 5.7          0.89707      108.1        1.9274      -24.896       0.017581    -21.324       0.51573      153.44      
 5.8          0.89691      105.94       1.9026      -27.255       0.017896    -21.163       0.51695      151.63      
 5.9          0.89677      103.74       1.8788      -29.637       0.018244    -21.066       0.51805      149.77      
 6            0.89665      101.51       1.8558      -32.043       0.018625    -21.04        0.51902      147.87      
